<!DOCTYPE html>
<html>
<head>
<meta http-equiv="Content-Type" content="text/html; charset=utf-8"/>
<meta http-equiv="x-ua-compatible" content="IE=edge"/>
<title>Test results - CounterTest</title>
<link href="../css/base-style.css" rel="stylesheet" type="text/css"/>
<link href="../css/style.css" rel="stylesheet" type="text/css"/>
<script src="../js/report.js" type="text/javascript"></script>
</head>
<body>
<div id="content">
<h1>CounterTest</h1>
<div class="breadcrumbs">
<a href="../index.html">all</a> &gt; 
<a href="../packages/ua.crowpi.projects.p02.html">ua.crowpi.projects.p02</a> &gt; CounterTest</div>
<div id="summary">
<table>
<tr>
<td>
<div class="summaryGroup">
<table>
<tr>
<td>
<div class="infoBox" id="tests">
<div class="counter">13</div>
<p>tests</p>
</div>
</td>
<td>
<div class="infoBox" id="failures">
<div class="counter">0</div>
<p>failures</p>
</div>
</td>
<td>
<div class="infoBox" id="ignored">
<div class="counter">0</div>
<p>ignored</p>
</div>
</td>
<td>
<div class="infoBox" id="duration">
<div class="counter">0.104s</div>
<p>duration</p>
</div>
</td>
</tr>
</table>
</div>
</td>
<td>
<div class="infoBox success" id="successRate">
<div class="percent">100%</div>
<p>successful</p>
</div>
</td>
</tr>
</table>
</div>
<div id="tabs">
<ul class="tabLinks">
<li>
<a href="#tab0">Tests</a>
</li>
<li>
<a href="#tab1">Standard output</a>
</li>
</ul>
<div id="tab0" class="tab">
<h2>Tests</h2>
<table>
<thead>
<tr>
<th>Test</th>
<th>Duration</th>
<th>Result</th>
</tr>
</thead>
<tr>
<td class="success">testCounterMode_doubleToogle_returnsOriginal()</td>
<td class="success">0.001s</td>
<td class="success">passed</td>
</tr>
<tr>
<td class="success">testCounterMode_getLabel_notBlank()</td>
<td class="success">0.002s</td>
<td class="success">passed</td>
</tr>
<tr>
<td class="success">testCounterMode_toggle()</td>
<td class="success">0s</td>
<td class="success">passed</td>
</tr>
<tr>
<td class="success">testCounterProject_identity()</td>
<td class="success">0.002s</td>
<td class="success">passed</td>
</tr>
<tr>
<td class="success">testEventFileLogger_appendsMultipleLines(Path)</td>
<td class="success">0.003s</td>
<td class="success">passed</td>
</tr>
<tr>
<td class="success">testEventFileLogger_createsFileAndWritesLine(Path)</td>
<td class="success">0.035s</td>
<td class="success">passed</td>
</tr>
<tr>
<td class="success">testEventRecord_getters_returnConstructorValues()</td>
<td class="success">0.001s</td>
<td class="success">passed</td>
</tr>
<tr>
<td class="success">testEventRecord_toLogLine()</td>
<td class="success">0.001s</td>
<td class="success">passed</td>
</tr>
<tr>
<td class="success">testEventRecord_toLogLine_countdownMode()</td>
<td class="success">0.005s</td>
<td class="success">passed</td>
</tr>
<tr>
<td class="success">testSevenSegmentDisplay_digit0_correctSegments()</td>
<td class="success">0.007s</td>
<td class="success">passed</td>
</tr>
<tr>
<td class="success">testSevenSegmentDisplay_digit5_correctSegments()</td>
<td class="success">0.027s</td>
<td class="success">passed</td>
</tr>
<tr>
<td class="success">testSevenSegmentDisplay_invalidDigit_throwsException()</td>
<td class="success">0.012s</td>
<td class="success">passed</td>
</tr>
<tr>
<td class="success">testSevenSegmentMapping_allDigits()</td>
<td class="success">0.008s</td>
<td class="success">passed</td>
</tr>
</table>
</div>
<div id="tab1" class="tab">
<h2>Standard output</h2>
<span class="code">
<pre>[MOCK I2C] write → addr=0x70 reg=0x21 val=0x00
[MOCK I2C] write → addr=0x70 reg=0x81 val=0x00
[MOCK I2C] write → addr=0x70 reg=0xEF val=0x00
[MOCK I2C] write → addr=0x70 reg=0x00 val=0x00
[MOCK I2C] write → addr=0x70 reg=0x02 val=0x00
[MOCK I2C] write → addr=0x70 reg=0x04 val=0x00
[MOCK I2C] write → addr=0x70 reg=0x06 val=0x00
[MOCK I2C] write → addr=0x70 reg=0x08 val=0x00
[MOCK I2C] write → addr=0x70 reg=0x0A val=0x00
[MOCK I2C] write → addr=0x70 reg=0x0C val=0x00
[MOCK I2C] write → addr=0x70 reg=0x0E val=0x00
[MOCK I2C] write → addr=0x70 reg=0x21 val=0x00
[MOCK I2C] write → addr=0x70 reg=0x81 val=0x00
[MOCK I2C] write → addr=0x70 reg=0xEF val=0x00
[MOCK I2C] write → addr=0x70 reg=0x00 val=0x00
[MOCK I2C] write → addr=0x70 reg=0x02 val=0x00
[MOCK I2C] write → addr=0x70 reg=0x04 val=0x00
[MOCK I2C] write → addr=0x70 reg=0x06 val=0x00
[MOCK I2C] write → addr=0x70 reg=0x08 val=0x00
[MOCK I2C] write → addr=0x70 reg=0x0A val=0x00
[MOCK I2C] write → addr=0x70 reg=0x0C val=0x00
[MOCK I2C] write → addr=0x70 reg=0x0E val=0x00
[MOCK I2C] write → addr=0x70 reg=0x00 val=0x3F
[MOCK I2C] write → addr=0x70 reg=0x00 val=0x06
[MOCK I2C] write → addr=0x70 reg=0x00 val=0x5B
[MOCK I2C] write → addr=0x70 reg=0x00 val=0x4F
[MOCK I2C] write → addr=0x70 reg=0x00 val=0x66
[MOCK I2C] write → addr=0x70 reg=0x00 val=0x6D
[MOCK I2C] write → addr=0x70 reg=0x00 val=0x7D
[MOCK I2C] write → addr=0x70 reg=0x00 val=0x07
[MOCK I2C] write → addr=0x70 reg=0x00 val=0x7F
[MOCK I2C] write → addr=0x70 reg=0x00 val=0x6F
</pre>
</span>
</div>
</div>
<div id="footer">
<p>
<div>
<label class="hidden" id="label-for-line-wrapping-toggle" for="line-wrapping-toggle">Wrap lines
<input id="line-wrapping-toggle" type="checkbox" autocomplete="off"/>
</label>
</div>Generated by 
<a href="http://www.gradle.org">Gradle 7.6.1</a> at Mar 29, 2026, 11:52:40 PM</p>
</div>
</div>
</body>
</html>
